Time [s],Value,Parity Error,Framing Error
0.001094908000000,4,,
0.001105336000000,8,,
0.001115776000000,\n,,
0.002083940000000,4,,
0.002094372000000,7,,
0.002104812000000,\n,,
0.003082864000000,4,,
0.003093296000000,8,,
0.003103732000000,\n,,
0.004079268000000,4,,
0.004089696000000,7,,
0.004100140000000,\n,,
0.005082464000000,4,,
0.005092896000000,7,,
0.005103340000000,\n,,
0.006081200000000,4,,
0.006091624000000,8,,
0.006102068000000,\n,,
0.007081796000000,4,,
0.007092224000000,7,,
0.007102664000000,\n,,
0.008078820000000,4,,
0.008089248000000,7,,
0.008099688000000,\n,,
0.009081952000000,4,,
0.009092384000000,7,,
0.009102828000000,\n,,
0.010082976000000,4,,
0.010093408000000,8,,
0.010103844000000,\n,,
0.011079476000000,4,,
0.011089904000000,7,,
0.011100344000000,\n,,
0.012082712000000,4,,
0.012093140000000,7,,
0.012103584000000,\n,,
0.013082028000000,4,,
0.013092452000000,8,,
0.013102892000000,\n,,
0.014078592000000,4,,
0.014089028000000,7,,
0.014099460000000,\n,,
0.015082584000000,4,,
0.015093016000000,7,,
0.015103464000000,\n,,
0.016082788000000,4,,
0.016093216000000,8,,
0.016103660000000,\n,,
0.017080464000000,4,,
0.017090892000000,7,,
0.017101332000000,\n,,
0.018078952000000,4,,
0.018089384000000,7,,
0.018099824000000,\n,,
0.019083960000000,4,,
0.019094392000000,8,,
0.019104836000000,\n,,
0.020083216000000,4,,
0.020093640000000,7,,
0.020104084000000,\n,,
0.021074688000000,4,,
0.021085116000000,7,,
0.021095556000000,\n,,
0.022075064000000,4,,
0.022085492000000,7,,
0.022095936000000,\n,,
0.023082692000000,4,,
0.023093120000000,8,,
0.023103564000000,\n,,
0.024080964000000,4,,
0.024091396000000,7,,
0.024101836000000,\n,,
0.025074860000000,4,,
0.025085292000000,7,,
0.025095732000000,\n,,
0.026076360000000,4,,
0.026086792000000,7,,
0.026097236000000,\n,,
0.027083684000000,4,,
0.027094108000000,8,,
0.027104548000000,\n,,
0.028084844000000,4,,
0.028095276000000,8,,
0.028105720000000,\n,,
0.029076996000000,4,,
0.029087432000000,7,,
0.029097872000000,\n,,
0.030073344000000,4,,
0.030083776000000,7,,
0.030094220000000,\n,,
0.031087716000000,4,,
0.031098144000000,8,,
0.031108584000000,\n,,
0.032076736000000,4,,
0.032087164000000,6,,
0.032097596000000,\n,,
0.033076020000000,4,,
0.033086452000000,8,,
0.033096900000000,\n,,
0.034087916000000,4,,
0.034098348000000,8,,
0.034108792000000,\n,,
0.035076148000000,4,,
0.035086580000000,6,,
0.035097028000000,\n,,
0.036076632000000,4,,
0.036087060000000,8,,
0.036097500000000,\n,,
0.037075384000000,4,,
0.037085808000000,7,,
0.037096248000000,\n,,
0.038072840000000,4,,
0.038083272000000,7,,
0.038093712000000,\n,,
0.039075760000000,4,,
0.039086188000000,7,,
0.039096632000000,\n,,
0.040075680000000,4,,
0.040086112000000,8,,
0.040096552000000,\n,,
0.041074672000000,4,,
0.041085104000000,7,,
0.041095544000000,\n,,
0.042076888000000,4,,
0.042087312000000,7,,
0.042097764000000,\n,,
0.043076704000000,4,,
0.043087140000000,8,,
0.043097576000000,\n,,
0.044082668000000,4,,
0.044093100000000,7,,
0.044103544000000,\n,,
0.045076236000000,4,,
0.045086668000000,7,,
0.045097104000000,\n,,
0.046083596000000,4,,
0.046094024000000,8,,
0.046104464000000,\n,,
0.047083344000000,4,,
0.047093776000000,8,,
0.047104216000000,\n,,
0.048076836000000,4,,
0.048087264000000,7,,
0.048097708000000,\n,,
0.049083928000000,4,,
0.049094356000000,7,,
0.049104800000000,\n,,
0.050083224000000,4,,
0.050093652000000,7,,
0.050104092000000,\n,,
0.051084116000000,4,,
0.051094548000000,8,,
0.051104988000000,\n,,
0.052081008000000,4,,
0.052091432000000,7,,
0.052101880000000,\n,,
0.053070464000000,4,,
0.053080896000000,7,,
0.053091340000000,\n,,
0.054075240000000,4,,
0.054085672000000,7,,
0.054096116000000,\n,,
0.055076556000000,4,,
0.055086984000000,8,,
0.055097428000000,\n,,
0.056075304000000,4,,
0.056085736000000,7,,
0.056096180000000,\n,,
0.057077984000000,4,,
0.057088412000000,7,,
0.057098856000000,\n,,
0.058077524000000,4,,
0.058087952000000,7,,
0.058098392000000,\n,,
0.059078032000000,4,,
0.059088464000000,8,,
0.059098908000000,\n,,
0.060074276000000,4,,
0.060084704000000,7,,
0.060095148000000,\n,,
0.061083468000000,4,,
0.061093900000000,8,,
0.061104344000000,\n,,
0.062078212000000,4,,
0.062088640000000,7,,
0.062099080000000,\n,,
0.063073688000000,4,,
0.063084124000000,7,,
0.063094568000000,\n,,
0.064083100000000,4,,
0.064093532000000,7,,
0.064103980000000,\n,,
0.065084864000000,4,,
0.065095296000000,8,,
0.065105744000000,\n,,
0.066076532000000,4,,
0.066086964000000,7,,
0.066097412000000,\n,,
0.067073820000000,4,,
0.067084256000000,7,,
0.067094696000000,\n,,
0.068077620000000,4,,
0.068088056000000,7,,
0.068098500000000,\n,,
0.069077492000000,4,,
0.069087920000000,8,,
0.069098364000000,\n,,
0.070074296000000,4,,
0.070084732000000,7,,
0.070095176000000,\n,,
0.071078572000000,4,,
0.071089000000000,7,,
0.071099444000000,\n,,
0.072078860000000,4,,
0.072089296000000,7,,
0.072099740000000,\n,,
0.073076396000000,4,,
0.073086828000000,8,,
0.073097268000000,\n,,
0.074074900000000,4,,
0.074085336000000,7,,
0.074095772000000,\n,,
0.075077304000000,4,,
0.075087732000000,7,,
0.075098176000000,\n,,
0.076078380000000,4,,
0.076088816000000,8,,
0.076099256000000,\n,,
0.077086392000000,4,,
0.077096820000000,7,,
0.077107264000000,\n,,
0.078083476000000,4,,
0.078093904000000,7,,
0.078104352000000,\n,,
0.079083328000000,4,,
0.079093764000000,8,,
0.079104204000000,\n,,
0.080080888000000,4,,
0.080091316000000,7,,
0.080101764000000,\n,,
0.081073716000000,4,,
0.081084148000000,7,,
0.081094592000000,\n,,
0.082076888000000,4,,
0.082087324000000,7,,
0.082097768000000,\n,,
0.083081892000000,4,,
0.083092320000000,8,,
0.083102756000000,\n,,
0.084080500000000,4,,
0.084090932000000,7,,
0.084101380000000,\n,,
0.085074304000000,4,,
0.085084740000000,7,,
0.085095184000000,\n,,
0.086085184000000,4,,
0.086095612000000,8,,
0.086106056000000,\n,,
0.087080440000000,4,,
0.087090872000000,7,,
0.087101320000000,\n,,
0.088075304000000,4,,
0.088085736000000,7,,
0.088096176000000,\n,,
0.089078000000000,4,,
0.089088432000000,7,,
0.089098876000000,\n,,
0.090081500000000,4,,
0.090091932000000,8,,
0.090102372000000,\n,,
0.091081240000000,4,,
0.091091668000000,7,,
0.091102108000000,\n,,
0.092073616000000,4,,
0.092084044000000,7,,
0.092094488000000,\n,,
0.093076516000000,4,,
0.093086948000000,7,,
0.093097392000000,\n,,
0.094080936000000,4,,
0.094091368000000,8,,
0.094101804000000,\n,,
0.095083560000000,4,,
0.095093992000000,7,,
0.095104436000000,\n,,
0.096078632000000,4,,
0.096089056000000,7,,
0.096099496000000,\n,,
0.097077412000000,4,,
0.097087840000000,8,,
0.097098280000000,\n,,
0.098074920000000,4,,
0.098085356000000,7,,
0.098095796000000,\n,,
0.099078420000000,4,,
0.099088856000000,7,,
0.099099300000000,\n,,
0.100077348000000,4,,
0.100087776000000,7,,
0.100098220000000,\n,,
0.101082700000000,4,,
0.101093132000000,8,,
0.101103576000000,\n,,
0.102084756000000,4,,
0.102095188000000,7,,
0.102105636000000,\n,,
0.103078520000000,4,,
0.103088952000000,7,,
0.103099392000000,\n,,
0.104075984000000,4,,
0.104086420000000,7,,
0.104096864000000,\n,,
0.105077788000000,4,,
0.105088216000000,8,,
0.105098656000000,\n,,
0.106074628000000,4,,
0.106085060000000,7,,
0.106095504000000,\n,,
0.107077860000000,4,,
0.107088288000000,7,,
0.107098732000000,\n,,
0.108078260000000,4,,
0.108088696000000,8,,
0.108099140000000,\n,,
0.109074760000000,4,,
0.109085192000000,7,,
0.109095640000000,\n,,
0.110076916000000,4,,
0.110087348000000,7,,
0.110097788000000,\n,,
0.111078200000000,4,,
0.111088636000000,8,,
0.111099080000000,\n,,
0.112081480000000,4,,
0.112091912000000,7,,
0.112102356000000,\n,,
0.113083924000000,4,,
0.113094356000000,7,,
0.113104800000000,\n,,
0.114082708000000,4,,
0.114093140000000,8,,
0.114103580000000,\n,,
0.115076272000000,4,,
0.115086704000000,7,,
0.115097148000000,\n,,
0.116075048000000,4,,
0.116085480000000,7,,
0.116095920000000,\n,,
0.117077884000000,4,,
0.117088312000000,7,,
0.117098752000000,\n,,
0.118080068000000,4,,
0.118090500000000,8,,
0.118100940000000,\n,,
0.119075308000000,4,,
0.119085736000000,7,,
0.119096176000000,\n,,
0.120078168000000,4,,
0.120088596000000,7,,
0.120099032000000,\n,,
0.121077344000000,4,,
0.121087772000000,7,,
0.121098216000000,\n,,
0.122077044000000,4,,
0.122087476000000,8,,
0.122097916000000,\n,,
0.123070580000000,4,,
0.123081012000000,7,,
0.123091464000000,\n,,
0.124078144000000,4,,
0.124088576000000,7,,
0.124099020000000,\n,,
0.125078100000000,4,,
0.125088532000000,8,,
0.125098972000000,\n,,
0.126083884000000,4,,
0.126094316000000,7,,
0.126104760000000,\n,,
0.127073400000000,4,,
0.127083828000000,7,,
0.127094276000000,\n,,
0.128077844000000,4,,
0.128088272000000,7,,
0.128098716000000,\n,,
0.129080920000000,4,,
0.129091348000000,8,,
0.129101796000000,\n,,
0.130083408000000,4,,
0.130093840000000,7,,
0.130104280000000,\n,,
0.131077332000000,4,,
0.131087768000000,7,,
0.131098208000000,\n,,
0.132080312000000,4,,
0.132090744000000,8,,
0.132101188000000,\n,,
0.133078588000000,4,,
0.133089024000000,7,,
0.133099468000000,\n,,
0.134076540000000,4,,
0.134086972000000,8,,
0.134097416000000,\n,,
0.135074688000000,4,,
0.135085116000000,7,,
0.135095560000000,\n,,
0.136079528000000,4,,
0.136089964000000,7,,
0.136100408000000,\n,,
0.137078256000000,4,,
0.137088688000000,7,,
0.137099136000000,\n,,
0.138076796000000,4,,
0.138087232000000,8,,
0.138097672000000,\n,,
0.139081236000000,4,,
0.139091668000000,7,,
0.139102108000000,\n,,
0.140077980000000,4,,
0.140088412000000,7,,
0.140098856000000,\n,,
0.141077212000000,4,,
0.141087644000000,8,,
0.141098088000000,\n,,
0.142075520000000,4,,
0.142085952000000,7,,
0.142096400000000,\n,,
0.143073604000000,4,,
0.143084036000000,7,,
0.143094488000000,\n,,
0.144077652000000,4,,
0.144088084000000,7,,
0.144098524000000,\n,,
0.145078536000000,4,,
0.145088964000000,8,,
0.145099404000000,\n,,
0.146074432000000,4,,
0.146084868000000,7,,
0.146095308000000,\n,,
0.147077448000000,4,,
0.147087888000000,7,,
0.147098332000000,\n,,
0.148078176000000,4,,
0.148088608000000,8,,
0.148099052000000,\n,,
0.149074424000000,4,,
0.149084856000000,7,,
0.149095300000000,\n,,
0.150083892000000,4,,
0.150094328000000,7,,
0.150104776000000,\n,,
0.151083880000000,4,,
0.151094320000000,8,,
0.151104764000000,\n,,
0.152081520000000,4,,
0.152091960000000,7,,
0.152102400000000,\n,,
0.153085072000000,4,,
0.153095508000000,7,,
0.153105956000000,\n,,
0.154077444000000,4,,
0.154087884000000,7,,
0.154098328000000,\n,,
0.155077184000000,4,,
0.155087616000000,7,,
0.155098060000000,\n,,
0.156081020000000,4,,
0.156091452000000,8,,
0.156101900000000,\n,,
0.157075004000000,4,,
0.157085440000000,7,,
0.157095884000000,\n,,
0.158078696000000,4,,
0.158089132000000,7,,
0.158099576000000,\n,,
0.159080916000000,4,,
0.159091352000000,8,,
0.159101800000000,\n,,
0.160081120000000,4,,
0.160091552000000,7,,
0.160102000000000,\n,,
0.161074804000000,4,,
0.161085240000000,7,,
0.161095692000000,\n,,
0.162076916000000,4,,
0.162087352000000,7,,
0.162097800000000,\n,,
0.163081260000000,4,,
0.163091692000000,8,,
0.163102136000000,\n,,
0.164079976000000,4,,
0.164090412000000,7,,
0.164100856000000,\n,,
0.165078308000000,4,,
0.165088748000000,7,,
0.165099196000000,\n,,
0.166080120000000,4,,
0.166090552000000,7,,
0.166100996000000,\n,,
0.167077764000000,4,,
0.167088200000000,8,,
0.167098648000000,\n,,
0.168084260000000,4,,
0.168094692000000,7,,
0.168105136000000,\n,,
0.169084784000000,4,,
0.169095224000000,8,,
0.169105676000000,\n,,
0.170079848000000,4,,
0.170090284000000,7,,
0.170100732000000,\n,,
0.171076512000000,4,,
0.171086952000000,7,,
0.171097400000000,\n,,
0.172073472000000,4,,
0.172083904000000,7,,
0.172094352000000,\n,,
0.173079680000000,4,,
0.173090116000000,7,,
0.173100556000000,\n,,
0.174082020000000,4,,
0.174092456000000,8,,
0.174102904000000,\n,,
0.175085104000000,4,,
0.175095540000000,7,,
0.175105984000000,\n,,
0.176078988000000,4,,
0.176089416000000,7,,
0.176099860000000,\n,,
0.177078624000000,4,,
0.177089060000000,7,,
0.177099500000000,\n,,
0.178076964000000,4,,
0.178087396000000,8,,
0.178097844000000,\n,,
0.179076120000000,4,,
0.179086552000000,7,,
0.179097004000000,\n,,
0.180078044000000,4,,
0.180088480000000,7,,
0.180098924000000,\n,,
0.181077312000000,4,,
0.181087748000000,7,,
0.181098192000000,\n,,
0.182076892000000,4,,
0.182087328000000,8,,
0.182097780000000,\n,,
0.183080908000000,4,,
0.183091336000000,7,,
0.183101780000000,\n,,
0.184077292000000,4,,
0.184087728000000,7,,
0.184098172000000,\n,,
0.185083352000000,4,,
0.185093788000000,8,,
0.185104236000000,\n,,
0.186085192000000,4,,
0.186095624000000,7,,
0.186106076000000,\n,,
0.187084556000000,4,,
0.187094988000000,7,,
0.187105432000000,\n,,
0.188084908000000,4,,
0.188095344000000,8,,
0.188105784000000,\n,,
0.189078100000000,4,,
0.189088532000000,7,,
0.189098976000000,\n,,
0.190075360000000,4,,
0.190085796000000,7,,
0.190096240000000,\n,,
0.191077784000000,4,,
0.191088216000000,7,,
0.191098664000000,\n,,
0.192074748000000,4,,
0.192085184000000,8,,
0.192095632000000,\n,,
0.193077736000000,4,,
0.193088164000000,7,,
0.193098612000000,\n,,
0.194077868000000,4,,
0.194088300000000,8,,
0.194098744000000,\n,,
0.195075316000000,4,,
0.195085748000000,7,,
0.195096192000000,\n,,
0.196084764000000,4,,
0.196095204000000,7,,
0.196105648000000,\n,,
0.197084816000000,4,,
0.197095248000000,8,,
0.197105692000000,\n,,
0.198078484000000,4,,
0.198088916000000,7,,
0.198099360000000,\n,,
0.199075496000000,4,,
0.199085924000000,7,,
0.199096368000000,\n,,
0.200084512000000,4,,
0.200094944000000,8,,
0.200105392000000,\n,,
0.201083112000000,4,,
0.201093540000000,7,,
0.201103992000000,\n,,
0.202075952000000,4,,
0.202086380000000,7,,
0.202096824000000,\n,,
0.203074892000000,4,,
0.203085320000000,7,,
0.203095764000000,\n,,
0.204076940000000,4,,
0.204087372000000,7,,
0.204097820000000,\n,,
0.205078532000000,4,,
0.205088964000000,8,,
0.205099412000000,\n,,
0.206083956000000,4,,
0.206094388000000,7,,
0.206104828000000,\n,,
0.207078896000000,4,,
0.207089332000000,7,,
0.207099768000000,\n,,
0.208077920000000,4,,
0.208088352000000,7,,
0.208098796000000,\n,,
0.209076812000000,4,,
0.209087244000000,8,,
0.209097684000000,\n,,
0.210075668000000,4,,
0.210086100000000,7,,
0.210096544000000,\n,,
0.211077564000000,4,,
0.211087996000000,7,,
0.211098428000000,\n,,
0.212077800000000,4,,
0.212088236000000,8,,
0.212098680000000,\n,,
0.213076712000000,4,,
0.213087140000000,7,,
0.213097584000000,\n,,
0.214077516000000,4,,
0.214087948000000,7,,
0.214098388000000,\n,,
0.215083400000000,4,,
0.215093832000000,8,,
0.215104272000000,\n,,
0.216087200000000,4,,
0.216097628000000,7,,
0.216108068000000,\n,,
0.217070888000000,4,,
0.217081316000000,7,,
0.217091760000000,\n,,
0.218078532000000,4,,
0.218088960000000,7,,
0.218099404000000,\n,,
0.219079968000000,4,,
0.219090400000000,8,,
0.219100844000000,\n,,
0.220075520000000,4,,
0.220085952000000,7,,
0.220096400000000,\n,,
0.221078096000000,4,,
0.221088528000000,7,,
0.221098972000000,\n,,
0.222076544000000,4,,
0.222086972000000,8,,
0.222097416000000,\n,,
0.223076900000000,4,,
0.223087332000000,7,,
0.223097772000000,\n,,
0.224077916000000,4,,
0.224088344000000,8,,
0.224098784000000,\n,,
0.225076496000000,4,,
0.225086928000000,7,,
0.225097376000000,\n,,
0.226075288000000,4,,
0.226085716000000,7,,
0.226096160000000,\n,,
0.227080184000000,4,,
0.227090608000000,7,,
0.227101052000000,\n,,
0.228078680000000,4,,
0.228089112000000,8,,
0.228099556000000,\n,,
0.229074404000000,4,,
0.229084832000000,7,,
0.229095272000000,\n,,
0.230084632000000,4,,
0.230095068000000,8,,
0.230105512000000,\n,,
0.231082364000000,4,,
0.231092796000000,7,,
0.231103240000000,\n,,
0.232075536000000,4,,
0.232085972000000,7,,
0.232096416000000,\n,,
0.233075760000000,4,,
0.233086196000000,7,,
0.233096644000000,\n,,
0.234076792000000,4,,
0.234087228000000,7,,
0.234097676000000,\n,,
0.235077984000000,4,,
0.235088412000000,8,,
0.235098856000000,\n,,
0.236075996000000,4,,
0.236086424000000,7,,
0.236096868000000,\n,,
0.237078440000000,4,,
0.237088872000000,7,,
0.237099312000000,\n,,
0.238082684000000,4,,
0.238093116000000,8,,
0.238103560000000,\n,,
0.239076192000000,4,,
0.239086624000000,7,,
0.239097076000000,\n,,
0.240075808000000,4,,
0.240086240000000,7,,
0.240096684000000,\n,,
0.241078644000000,4,,
0.241089080000000,7,,
0.241099524000000,\n,,
0.242077572000000,4,,
0.242088008000000,8,,
0.242098460000000,\n,,
0.243075528000000,4,,
0.243085960000000,7,,
0.243096404000000,\n,,
0.244077992000000,4,,
0.244088424000000,7,,
0.244098868000000,\n,,
0.245077656000000,4,,
0.245088092000000,7,,
0.245098536000000,\n,,
0.246078248000000,4,,
0.246088680000000,8,,
0.246099128000000,\n,,
0.247075876000000,4,,
0.247086316000000,7,,
0.247096764000000,\n,,
0.248078384000000,4,,
0.248088820000000,7,,
0.248099260000000,\n,,
0.249077872000000,4,,
0.249088304000000,8,,
0.249098748000000,\n,,
0.250076804000000,4,,
0.250087232000000,7,,
0.250097680000000,\n,,
0.251074984000000,4,,
0.251085412000000,7,,
0.251095864000000,\n,,
0.252078776000000,4,,
0.252089212000000,7,,
0.252099656000000,\n,,
0.253083068000000,4,,
0.253093500000000,8,,
0.253103952000000,\n,,
0.254085260000000,4,,
0.254095692000000,7,,
0.254106136000000,\n,,
0.255079296000000,4,,
0.255089728000000,7,,
0.255100168000000,\n,,
0.256084712000000,4,,
0.256095152000000,8,,
0.256105600000000,\n,,
0.257081232000000,4,,
0.257091664000000,7,,
0.257102104000000,\n,,
0.258075400000000,4,,
0.258085836000000,7,,
0.258096284000000,\n,,
0.259079728000000,4,,
0.259090160000000,7,,
0.259100608000000,\n,,
0.260081592000000,4,,
0.260092032000000,8,,
0.260102476000000,\n,,
0.261085656000000,4,,
0.261096092000000,7,,
0.261106536000000,\n,,
0.262079060000000,4,,
0.262089492000000,7,,
0.262099936000000,\n,,
0.263075576000000,4,,
0.263086012000000,8,,
0.263096460000000,\n,,
0.264085412000000,4,,
0.264095844000000,7,,
0.264106296000000,\n,,
0.265078240000000,4,,
0.265088676000000,7,,
0.265099116000000,\n,,
0.266077384000000,4,,
0.266087820000000,8,,
0.266098268000000,\n,,
0.267075000000000,4,,
0.267085440000000,7,,
0.267095880000000,\n,,
0.268078348000000,4,,
0.268088788000000,7,,
0.268099232000000,\n,,
0.269079132000000,4,,
0.269089564000000,8,,
0.269100008000000,\n,,
0.270075812000000,4,,
0.270086248000000,7,,
0.270096696000000,\n,,
0.271084728000000,4,,
0.271095152000000,7,,
0.271105600000000,\n,,
0.272085056000000,4,,
0.272095492000000,8,,
0.272105940000000,\n,,
0.273084396000000,4,,
0.273094832000000,7,,
0.273105280000000,\n,,
0.274075528000000,4,,
0.274085960000000,7,,
0.274096408000000,\n,,
0.275089688000000,4,,
0.275100128000000,8,,
0.275110572000000,\n,,
0.276078312000000,4,,
0.276088748000000,6,,
0.276099192000000,\n,,
0.277079304000000,4,,
0.277089736000000,8,,
0.277100180000000,\n,,
0.278074804000000,4,,
0.278085236000000,7,,
0.278095688000000,\n,,
0.279078024000000,4,,
0.279088456000000,7,,
0.279098904000000,\n,,
0.280077888000000,4,,
0.280088320000000,7,,
0.280098768000000,\n,,
0.281076672000000,4,,
0.281087108000000,8,,
0.281097548000000,\n,,
0.282076144000000,4,,
0.282086572000000,7,,
0.282097016000000,\n,,
0.283078400000000,4,,
0.283088832000000,7,,
0.283099280000000,\n,,
0.284083908000000,4,,
0.284094336000000,8,,
0.284104780000000,\n,,
0.285085320000000,4,,
0.285095752000000,7,,
0.285106200000000,\n,,
0.286078208000000,4,,
0.286088644000000,7,,
0.286099088000000,\n,,
0.287080012000000,4,,
0.287090444000000,7,,
0.287100892000000,\n,,
0.288077104000000,4,,
0.288087536000000,8,,
0.288097980000000,\n,,
0.289075760000000,4,,
0.289086192000000,7,,
0.289096632000000,\n,,
0.290086412000000,4,,
0.290096852000000,8,,
0.290107296000000,\n,,
0.291081872000000,4,,
0.291092304000000,7,,
0.291102756000000,\n,,
0.292075668000000,4,,
0.292086104000000,7,,
0.292096548000000,\n,,
0.293080204000000,4,,
0.293090636000000,7,,
0.293101080000000,\n,,
0.294077968000000,4,,
0.294088400000000,7,,
0.294098844000000,\n,,
0.295077916000000,4,,
0.295088348000000,8,,
0.295098788000000,\n,,
0.296079068000000,4,,
0.296089500000000,7,,
0.296099944000000,\n,,
0.297078496000000,4,,
0.297088932000000,7,,
0.297099376000000,\n,,
0.298078480000000,4,,
0.298088916000000,7,,
