Time [s],Value,Parity Error,Framing Error
-0.001992952000000,9,,
-0.001906076000000,6,,
-0.001819198000000,\n,,
0.000013920000000,9,,
0.000100796000000,6,,
0.000187674000000,\n,,
0.002012104000000,9,,
0.002098980000000,6,,
0.002185858000000,\n,,
0.004010288000000,9,,
0.004097164000000,6,,
0.004184042000000,\n,,
0.006008472000000,9,,
0.006095348000000,6,,
0.006182226000000,\n,,
0.008006656000000,9,,
0.008093532000000,6,,
0.008180410000000,\n,,
0.010013526000000,9,,
0.010100404000000,6,,
0.010187282000000,\n,,
0.012011712000000,9,,
0.012098588000000,6,,
0.012185466000000,\n,,
0.014009896000000,9,,
0.014096772000000,6,,
0.014183650000000,\n,,
0.016008080000000,9,,
0.016094956000000,6,,
0.016181836000000,\n,,
0.018014952000000,9,,
0.018101828000000,6,,
0.018188706000000,\n,,
0.020013136000000,9,,
0.020100012000000,6,,
0.020186892000000,\n,,
0.022011320000000,9,,
0.022098198000000,6,,
0.022185074000000,\n,,
0.024009504000000,9,,
0.024096382000000,6,,
0.024183258000000,\n,,
0.026007688000000,9,,
0.026094566000000,6,,
0.026181442000000,\n,,
0.028014560000000,9,,
0.028101438000000,6,,
0.028188314000000,\n,,
0.030012744000000,9,,
0.030099622000000,6,,
0.030186498000000,\n,,
0.032010930000000,9,,
0.032097806000000,6,,
0.032184684000000,\n,,
0.034009114000000,9,,
0.034095990000000,6,,
0.034182868000000,\n,,
0.036007298000000,9,,
0.036094176000000,6,,
0.036181052000000,\n,,
0.038014170000000,9,,
0.038101046000000,6,,
0.038187924000000,\n,,
0.040012354000000,9,,
0.040099230000000,6,,
0.040186108000000,\n,,
0.042010538000000,9,,
0.042097416000000,6,,
0.042184292000000,\n,,
0.044008722000000,9,,
0.044095598000000,6,,
0.044182476000000,\n,,
0.046006906000000,9,,
0.046093784000000,6,,
0.046180660000000,\n,,
0.048013778000000,9,,
0.048100654000000,6,,
0.048187532000000,\n,,
0.050011962000000,9,,
0.050098840000000,6,,
0.050185718000000,\n,,
0.052010146000000,9,,
0.052097024000000,6,,
0.052183900000000,\n,,
0.054008332000000,9,,
0.054095208000000,6,,
0.054182086000000,\n,,
0.056006514000000,9,,
0.056093392000000,6,,
0.056180270000000,\n,,
0.058013386000000,9,,
0.058100264000000,6,,
0.058187140000000,\n,,
0.060011572000000,9,,
0.060098450000000,6,,
0.060185324000000,\n,,
0.062009756000000,9,,
0.062096632000000,6,,
0.062183510000000,\n,,
0.064007940000000,9,,
0.064094816000000,6,,
0.064181692000000,\n,,
0.066014812000000,9,,
0.066101688000000,6,,
0.066188566000000,\n,,
0.068012994000000,9,,
0.068099872000000,6,,
0.068186750000000,\n,,
0.070011180000000,9,,
0.070098056000000,6,,
0.070184934000000,\n,,
0.072009362000000,9,,
0.072096242000000,6,,
0.072183118000000,\n,,
0.074007548000000,9,,
0.074094424000000,6,,
0.074181302000000,\n,,
0.076014420000000,9,,
0.076101296000000,6,,
0.076188174000000,\n,,
0.078012604000000,9,,
0.078099480000000,6,,
0.078186358000000,\n,,
0.080010788000000,9,,
0.080097664000000,6,,
0.080184542000000,\n,,
0.082008972000000,9,,
0.082095848000000,6,,
0.082182726000000,\n,,
0.084007156000000,9,,
0.084094034000000,6,,
0.084180910000000,\n,,
0.086014028000000,9,,
0.086100906000000,6,,
0.086187782000000,\n,,
0.088012212000000,9,,
0.088099090000000,6,,
0.088185968000000,\n,,
0.090010396000000,9,,
0.090097274000000,6,,
0.090184154000000,\n,,
0.092008580000000,9,,
0.092095458000000,6,,
0.092182336000000,\n,,
0.094015452000000,9,,
0.094102330000000,6,,
0.094189208000000,\n,,
0.096013636000000,9,,
0.096100514000000,6,,
0.096187392000000,\n,,
0.098011820000000,9,,
0.098098698000000,6,,
0.098185576000000,\n,,
0.100010004000000,9,,
0.100096882000000,6,,
0.100183760000000,\n,,
0.102008190000000,9,,
0.102095066000000,6,,
0.102181944000000,\n,,
0.104015062000000,9,,
0.104101936000000,6,,
0.104188816000000,\n,,
0.106013246000000,9,,
0.106100122000000,6,,
0.106187000000000,\n,,
0.108011428000000,9,,
0.108098308000000,6,,
0.108185184000000,\n,,
0.110009612000000,9,,
0.110096490000000,6,,
0.110183368000000,\n,,
0.112007798000000,9,,
0.112094676000000,6,,
0.112181552000000,\n,,
0.114014670000000,9,,
0.114101548000000,6,,
0.114188424000000,\n,,
0.116012854000000,9,,
0.116099730000000,6,,
0.116186608000000,\n,,
0.118011036000000,9,,
0.118097914000000,6,,
0.118184792000000,\n,,
0.120009222000000,9,,
0.120096098000000,6,,
0.120182976000000,\n,,
0.122007406000000,9,,
0.122094284000000,6,,
0.122181160000000,\n,,
0.124014278000000,9,,
0.124101156000000,6,,
0.124188032000000,\n,,
0.126012462000000,9,,
0.126099340000000,6,,
0.126186216000000,\n,,
0.128010646000000,9,,
0.128097524000000,6,,
0.128184402000000,\n,,
0.130008830000000,9,,
0.130095708000000,6,,
0.130182586000000,\n,,
0.132015702000000,9,,
0.132102580000000,6,,
0.132189456000000,\n,,
0.134013886000000,9,,
0.134100764000000,6,,
0.134187640000000,\n,,
0.136012072000000,9,,
0.136098948000000,6,,
0.136185826000000,\n,,
0.138010254000000,9,,
0.138097132000000,6,,
0.138184010000000,\n,,
0.140008438000000,9,,
0.140095316000000,6,,
0.140182194000000,\n,,
0.142015310000000,9,,
0.142102186000000,6,,
0.142189066000000,\n,,
0.144013494000000,9,,
0.144100370000000,6,,
0.144187250000000,\n,,
0.146011680000000,9,,
0.146098556000000,6,,
0.146185434000000,\n,,
0.148009862000000,9,,
0.148096740000000,6,,
0.148183618000000,\n,,
0.150008048000000,9,,
0.150094924000000,6,,
0.150181802000000,\n,,
0.152014918000000,9,,
0.152101796000000,6,,
0.152188672000000,\n,,
0.154013104000000,9,,
0.154099980000000,6,,
0.154186858000000,\n,,
0.156011288000000,9,,
0.156098164000000,6,,
0.156185042000000,\n,,
0.158009472000000,9,,
0.158096348000000,6,,
0.158183226000000,\n,,
0.160007656000000,9,,
0.160094534000000,6,,
0.160181410000000,\n,,
0.162014528000000,9,,
0.162101404000000,6,,
0.162188282000000,\n,,
0.164012712000000,9,,
0.164099588000000,6,,
0.164186466000000,\n,,
0.166010896000000,9,,
0.166097772000000,6,,
0.166184650000000,\n,,
0.168009080000000,9,,
0.168095956000000,6,,
0.168182834000000,\n,,
0.170007264000000,9,,
0.170094142000000,6,,
0.170181018000000,\n,,
0.172014136000000,9,,
0.172101012000000,6,,
0.172187890000000,\n,,
0.174012320000000,9,,
0.174099196000000,6,,
0.174186074000000,\n,,
0.176010504000000,9,,
0.176097380000000,6,,
0.176184258000000,\n,,
0.178008688000000,9,,
0.178095566000000,6,,
0.178182442000000,\n,,
0.180015560000000,9,,
0.180102436000000,6,,
0.180189314000000,\n,,
0.182013744000000,9,,
0.182100622000000,6,,
0.182187498000000,\n,,
0.184011928000000,9,,
0.184098806000000,6,,
0.184185682000000,\n,,
0.186010112000000,9,,
0.186096990000000,6,,
0.186183866000000,\n,,
0.188008296000000,9,,
0.188095174000000,6,,
0.188182050000000,\n,,
0.190015168000000,9,,
0.190102046000000,6,,
0.190188924000000,\n,,
0.192013352000000,9,,
0.192100228000000,6,,
0.192187106000000,\n,,
0.194011536000000,9,,
0.194098414000000,6,,
0.194185290000000,\n,,
0.196009720000000,9,,
0.196096598000000,6,,
0.196183474000000,\n,,
0.198007904000000,9,,
0.198094782000000,6,,
0.198181658000000,\n,,
0.200014776000000,9,,
0.200101654000000,6,,
0.200188532000000,\n,,
0.202012960000000,9,,
0.202099838000000,6,,
0.202186714000000,\n,,
0.204011144000000,9,,
0.204098022000000,6,,
0.204184898000000,\n,,
0.206009328000000,9,,
0.206096206000000,6,,
0.206183084000000,\n,,
0.208007512000000,9,,
0.208094390000000,6,,
0.208181268000000,\n,,
0.210014386000000,9,,
0.210101260000000,6,,
0.210188140000000,\n,,
0.212012568000000,9,,
0.212099446000000,6,,
0.212186324000000,\n,,
0.214010754000000,9,,
0.214097630000000,6,,
0.214184506000000,\n,,
0.216008936000000,9,,
0.216095814000000,6,,
0.216182692000000,\n,,
0.218015808000000,9,,
0.218102686000000,6,,
0.218189564000000,\n,,
0.220013994000000,9,,
0.220100870000000,6,,
0.220187746000000,\n,,
0.222012178000000,9,,
0.222099054000000,6,,
0.222185932000000,\n,,
0.224010362000000,9,,
0.224097238000000,6,,
0.224184116000000,\n,,
0.226008546000000,9,,
0.226095422000000,6,,
0.226182300000000,\n,,
0.228015416000000,9,,
0.228102294000000,6,,
0.228189172000000,\n,,
0.230013600000000,9,,
0.230100478000000,6,,
0.230187356000000,\n,,
0.232011784000000,9,,
0.232098662000000,6,,
0.232185540000000,\n,,
0.234009968000000,9,,
0.234096846000000,6,,
0.234183724000000,\n,,
0.236008154000000,9,,
0.236095030000000,6,,
0.236181908000000,\n,,
0.238015024000000,9,,
0.238101902000000,6,,
0.238188780000000,\n,,
0.240004520000000,9,,
0.240091398000000,6,,
0.240178276000000,\n,,
0.242011394000000,9,,
0.242098270000000,6,,
0.242185148000000,\n,,
0.244009578000000,9,,
0.244096454000000,6,,
0.244183332000000,\n,,
0.246007762000000,9,,
0.246094638000000,6,,
0.246181516000000,\n,,
0.248014632000000,9,,
0.248101510000000,6,,
0.248188388000000,\n,,
0.250012818000000,9,,
0.250099694000000,6,,
0.250186572000000,\n,,
0.252011002000000,9,,
0.252097878000000,6,,
0.252184754000000,\n,,
0.254009186000000,9,,
0.254096062000000,6,,
0.254182940000000,\n,,
0.256016056000000,9,,
0.256102934000000,6,,
0.256189812000000,\n,,
0.258014242000000,9,,
0.258101118000000,6,,
0.258187996000000,\n,,
0.260012426000000,9,,
0.260099302000000,6,,
0.260186180000000,\n,,
0.262010610000000,9,,
0.262097486000000,6,,
0.262184364000000,\n,,
0.264008794000000,9,,
0.264095670000000,6,,
0.264182548000000,\n,,
0.266015666000000,9,,
0.266102542000000,6,,
0.266189420000000,\n,,
0.268013850000000,9,,
0.268100726000000,6,,
0.268187604000000,\n,,
0.270012034000000,9,,
0.270098910000000,6,,
0.270185788000000,\n,,
0.272010218000000,9,,
0.272097094000000,6,,
0.272183972000000,\n,,
0.274008402000000,9,,
0.274095278000000,6,,
0.274182156000000,\n,,
0.276006586000000,9,,
0.276093464000000,6,,
0.276180340000000,\n,,
0.278013458000000,9,,
0.278100334000000,6,,
0.278187212000000,\n,,
0.280011642000000,9,,
0.280098518000000,6,,
0.280185396000000,\n,,
0.282009826000000,9,,
0.282096702000000,6,,
0.282183582000000,\n,,
0.284008010000000,9,,
0.284094888000000,6,,
0.284181764000000,\n,,
0.286014882000000,9,,
0.286101758000000,6,,
0.286188636000000,\n,,
0.288013064000000,9,,
0.288099942000000,6,,
0.288186820000000,\n,,
0.290011250000000,9,,
0.290098128000000,6,,
0.290185004000000,\n,,
0.292009434000000,9,,
0.292096312000000,6,,
0.292183190000000,\n,,
0.294016306000000,9,,
0.294103182000000,6,,
0.294190060000000,\n,,
0.296014490000000,9,,
0.296101366000000,6,,
0.296188244000000,\n,,
0.298012674000000,9,,
0.298099550000000,6,,
0.298186428000000,\n,,
0.300010858000000,9,,
0.300097734000000,6,,
0.300184612000000,\n,,
0.302009042000000,9,,
0.302095920000000,6,,
0.302182796000000,\n,,
0.304015914000000,9,,
0.304102790000000,6,,
0.304189668000000,\n,,
0.306014098000000,9,,
0.306100974000000,6,,
0.306187852000000,\n,,
0.308012282000000,9,,
0.308099158000000,6,,
0.308186036000000,\n,,
0.310010466000000,9,,
0.310097342000000,6,,
0.310184220000000,\n,,
0.312008650000000,9,,
0.312095526000000,6,,
0.312182404000000,\n,,
0.314015522000000,9,,
0.314102398000000,6,,
0.314189276000000,\n,,
0.316013706000000,9,,
0.316100582000000,6,,
0.316187460000000,\n,,
0.318011890000000,9,,
0.318098766000000,6,,
0.318185644000000,\n,,
0.320010074000000,9,,
0.320096950000000,6,,
0.320183828000000,\n,,
0.322008258000000,9,,
0.322095134000000,6,,
0.322182012000000,\n,,
0.324015130000000,9,,
0.324102006000000,6,,
0.324188884000000,\n,,
0.326013314000000,9,,
0.326100192000000,6,,
0.326187068000000,\n,,
0.328011498000000,9,,
0.328098374000000,6,,
0.328185252000000,\n,,
0.330009682000000,9,,
0.330096558000000,6,,
0.330183436000000,\n,,
0.332016554000000,9,,
0.332103430000000,6,,
0.332190308000000,\n,,
0.334014738000000,9,,
0.334101614000000,6,,
0.334188492000000,\n,,
0.336012922000000,9,,
0.336099798000000,6,,
0.336186676000000,\n,,
0.338011106000000,9,,
0.338097982000000,6,,
0.338184860000000,\n,,
0.340009290000000,9,,
0.340096166000000,6,,
0.340183044000000,\n,,
0.342016162000000,9,,
0.342103038000000,6,,
0.342189916000000,\n,,
0.344014346000000,9,,
0.344101224000000,6,,
0.344188100000000,\n,,
0.346012530000000,9,,
0.346099406000000,6,,
0.346186284000000,\n,,
0.348010714000000,9,,
0.348097590000000,6,,
0.348184466000000,\n,,
0.350008898000000,9,,
0.350095774000000,6,,
0.350182652000000,\n,,
0.352015768000000,9,,
0.352102646000000,6,,
0.352189524000000,\n,,
0.354013954000000,9,,
0.354100830000000,6,,
0.354187708000000,\n,,
0.356012136000000,9,,
0.356099014000000,6,,
0.356185892000000,\n,,
0.358010322000000,9,,
0.358097198000000,6,,
0.358184076000000,\n,,
0.360008504000000,9,,
0.360095382000000,6,,
0.360182260000000,\n,,
0.362015378000000,9,,
0.362102252000000,6,,
0.362189132000000,\n,,
0.364013560000000,9,,
0.364100438000000,6,,
0.364187316000000,\n,,
0.366011746000000,9,,
0.366098622000000,6,,
0.366185500000000,\n,,
0.368009930000000,9,,
0.368096806000000,6,,
0.368183684000000,\n,,
0.370016800000000,9,,
0.370103678000000,6,,
0.370190554000000,\n,,
0.372014984000000,9,,
0.372101864000000,6,,
0.372188740000000,\n,,
0.374013170000000,9,,
0.374100046000000,6,,
0.374186924000000,\n,,
0.376011352000000,9,,
0.376098230000000,6,,
0.376185108000000,\n,,
0.378009536000000,9,,
0.378096414000000,6,,
0.378183292000000,\n,,
0.380016408000000,9,,
0.380103284000000,6,,
0.380190164000000,\n,,
0.382014594000000,9,,
0.382101470000000,6,,
0.382188348000000,\n,,
0.384012776000000,9,,
0.384099654000000,6,,
0.384186532000000,\n,,
0.386010962000000,9,,
0.386097838000000,6,,
0.386184716000000,\n,,
0.388009146000000,9,,
0.388096022000000,6,,
0.388182900000000,\n,,
0.390016016000000,9,,
0.390102894000000,6,,
0.390189772000000,\n,,
0.392014200000000,9,,
0.392101078000000,6,,
0.392187956000000,\n,,
0.394012384000000,9,,
0.394099262000000,6,,
0.394186138000000,\n,,
0.396010568000000,9,,
0.396097446000000,6,,
0.396184322000000,\n,,
0.398008752000000,9,,
0.398095630000000,6,,
0.398182508000000,\n,,
0.400015624000000,9,,
0.400102502000000,6,,
0.400189378000000,\n,,
0.402013808000000,9,,
0.402100686000000,6,,
0.402187562000000,\n,,
0.404011992000000,9,,
0.404098870000000,6,,
0.404185748000000,\n,,
0.406010176000000,9,,
0.406097054000000,6,,
0.406183930000000,\n,,
0.408017048000000,9,,
0.408103924000000,6,,
0.408190802000000,\n,,
0.410015232000000,9,,
0.410102108000000,6,,
0.410188986000000,\n,,
0.412013416000000,9,,
0.412100294000000,6,,
0.412187170000000,\n,,
0.414011600000000,9,,
0.414098478000000,6,,
0.414185354000000,\n,,
0.416009784000000,9,,
0.416096662000000,6,,
0.416183538000000,\n,,
0.418016656000000,9,,
0.418103532000000,6,,
0.418190410000000,\n,,
0.420014840000000,9,,
0.420101716000000,6,,
0.420188594000000,\n,,
0.422013024000000,9,,
0.422099900000000,6,,
0.422186778000000,\n,,
0.424011208000000,9,,
0.424098084000000,6,,
0.424184962000000,\n,,
0.426009392000000,9,,
0.426096268000000,6,,
0.426183146000000,\n,,
0.428016264000000,9,,
0.428103140000000,6,,
0.428190018000000,\n,,
0.430014448000000,9,,
0.430101324000000,6,,
0.430188202000000,\n,,
0.432012632000000,9,,
0.432099508000000,6,,
0.432186386000000,\n,,
0.434010816000000,9,,
0.434097692000000,6,,
0.434184570000000,\n,,
0.436008998000000,9,,
0.436095876000000,6,,
0.436182754000000,\n,,
0.438015870000000,9,,
0.438102748000000,6,,
0.438189626000000,\n,,
0.440014056000000,9,,
0.440100932000000,6,,
0.440187810000000,\n,,
0.442012240000000,9,,
0.442099116000000,6,,
0.442185994000000,\n,,
0.444010422000000,9,,
0.444097300000000,6,,
0.444184178000000,\n,,
0.446017294000000,9,,
0.446104172000000,6,,
0.446191050000000,\n,,
0.448015478000000,9,,
0.448102356000000,6,,
0.448189232000000,\n,,
0.450013664000000,9,,
0.450100542000000,6,,
0.450187418000000,\n,,
0.452011848000000,9,,
0.452098722000000,6,,
0.452185602000000,\n,,
0.454010032000000,9,,
0.454096906000000,6,,
0.454183784000000,\n,,
0.456016902000000,9,,
0.456103780000000,6,,
0.456190656000000,\n,,
0.458015088000000,9,,
0.458101962000000,6,,
0.458188840000000,\n,,
0.460013270000000,9,,
0.460100148000000,6,,
0.460187024000000,\n,,
0.462011454000000,9,,
0.462098332000000,6,,
0.462185208000000,\n,,
0.464009638000000,9,,
0.464096516000000,6,,
0.464183392000000,\n,,
0.466016510000000,9,,
0.466103386000000,6,,
0.466190264000000,\n,,
0.468014694000000,9,,
0.468101572000000,6,,
0.468188448000000,\n,,
0.470012878000000,9,,
0.470099754000000,6,,
0.470186632000000,\n,,
0.472011062000000,9,,
0.472097938000000,6,,
0.472184816000000,\n,,
0.474009246000000,9,,
0.474096122000000,6,,
0.474183000000000,\n,,
0.476016116000000,9,,
0.476102994000000,6,,
0.476189872000000,\n,,
0.478014302000000,9,,
0.478101178000000,6,,
0.478188056000000,\n,,
0.480012486000000,9,,
0.480099362000000,6,,
0.480186240000000,\n,,
0.482010670000000,9,,
0.482097546000000,6,,
0.482184424000000,\n,,
0.484017542000000,9,,
0.484104418000000,6,,
0.484191296000000,\n,,
0.486015724000000,9,,
0.486102602000000,6,,
0.486189480000000,\n,,
0.488013908000000,9,,
0.488100786000000,6,,
0.488187664000000,\n,,
0.490012094000000,9,,
0.490098970000000,6,,
0.490185848000000,\n,,
0.492010276000000,9,,
0.492097154000000,6,,
0.492184032000000,\n,,
0.494008460000000,9,,
0.494095336000000,6,,
0.494182216000000,\n,,
0.496015332000000,9,,
0.496102210000000,6,,
0.496189088000000,\n,,
0.498013516000000,9,,
0.498100394000000,6,,
0.498187272000000,\n,,
0.500011700000000,9,,
0.500098578000000,6,,
0.500185456000000,\n,,
0.502009884000000,9,,
0.502096760000000,6,,
0.502183638000000,\n,,
0.504016756000000,9,,
0.504103632000000,6,,
0.504190510000000,\n,,
0.506014940000000,9,,
0.506101816000000,6,,
0.506188694000000,\n,,
0.508013124000000,9,,
0.508100002000000,6,,
0.508186878000000,\n,,
0.510011308000000,9,,
0.510098184000000,6,,
0.510185064000000,\n,,
0.512009492000000,9,,
0.512096368000000,6,,
0.512183246000000,\n,,
0.514016364000000,9,,
0.514103240000000,6,,
0.514190118000000,\n,,
0.516014546000000,9,,
0.516101424000000,6,,
0.516188302000000,\n,,
0.518012730000000,9,,
0.518099608000000,6,,
0.518186486000000,\n,,
0.520010914000000,9,,
0.520097792000000,6,,
0.520184670000000,\n,,
0.522017786000000,9,,
0.522104664000000,6,,
0.522191542000000,\n,,
0.524015970000000,9,,
0.524102846000000,6,,
0.524189726000000,\n,,
0.526014154000000,9,,
0.526101032000000,6,,
0.526187910000000,\n,,
0.528012340000000,9,,
0.528099216000000,6,,
0.528186094000000,\n,,
0.530010522000000,9,,
0.530097400000000,6,,
0.530184278000000,\n,,
0.532017394000000,9,,
0.532104270000000,6,,
0.532191148000000,\n,,
0.534015578000000,9,,
0.534102456000000,6,,
0.534189334000000,\n,,
0.536013762000000,9,,
0.536100638000000,6,,
0.536187516000000,\n,,
0.538011946000000,9,,
0.538098824000000,6,,
0.538185700000000,\n,,
0.540010130000000,9,,
0.540097006000000,6,,
0.540183884000000,\n,,
0.542017002000000,9,,
0.542103878000000,6,,
0.542190756000000,\n,,
0.544015184000000,9,,
0.544102062000000,6,,
0.544188940000000,\n,,
0.546013370000000,9,,
0.546100246000000,6,,
0.546187124000000,\n,,
0.548011554000000,9,,
0.548098430000000,6,,
0.548185308000000,\n,,
0.550018424000000,9,,
0.550105302000000,6,,
0.550192180000000,\n,,
0.552016608000000,9,,
0.552103486000000,6,,
0.552190364000000,\n,,
0.554014794000000,9,,
0.554101670000000,6,,
0.554188548000000,\n,,
0.556012976000000,9,,
0.556099854000000,6,,
0.556186732000000,\n,,
0.558011160000000,9,,
0.558098038000000,6,,
0.558184916000000,\n,,
0.560018032000000,9,,
0.560104910000000,6,,
0.560191786000000,\n,,
0.562016216000000,9,,
0.562103094000000,6,,
0.562189970000000,\n,,
0.564014400000000,9,,
0.564101278000000,6,,
0.564188154000000,\n,,
0.566012584000000,9,,
0.566099462000000,6,,
0.566186340000000,\n,,
0.568010768000000,9,,
0.568097644000000,6,,
0.568184522000000,\n,,
0.570017642000000,9,,
0.570104516000000,6,,
0.570191394000000,\n,,
0.572015824000000,9,,
0.572102700000000,6,,
0.572189578000000,\n,,
0.574014006000000,9,,
0.574100884000000,6,,
0.574187762000000,\n,,
0.576012190000000,9,,
0.576099068000000,6,,
0.576185946000000,\n,,
0.578010376000000,9,,
0.578097254000000,6,,
0.578184128000000,\n,,
0.580017248000000,9,,
0.580104124000000,6,,
0.580191002000000,\n,,
0.582015430000000,9,,
0.582102308000000,6,,
0.582189186000000,\n,,
0.584013614000000,9,,
0.584100492000000,6,,
0.584187370000000,\n,,
0.586011798000000,9,,
0.586098676000000,6,,
0.586185554000000,\n,,
0.588009982000000,9,,
0.588096860000000,6,,
0.588183736000000,\n,,
0.590016854000000,9,,
0.590103732000000,6,,
0.590190608000000,\n,,
0.592015038000000,9,,
0.592101916000000,6,,
