Time [s],Value,Parity Error,Framing Error
-8.307716190000001,\0,,Error
-0.000987610000000,1,,
-0.000900732000000,6,,
-0.000813858000000,\n,,
0.000011480000000,1,,
0.000098356000000,6,,
0.000185234000000,\n,,
0.001019256000000,1,,
0.001106134000000,6,,
0.001193010000000,\n,,
0.002018348000000,1,,
0.002105224000000,6,,
0.002192100000000,\n,,
0.003017436000000,1,,
0.003104314000000,6,,
0.003191192000000,\n,,
0.004016526000000,1,,
0.004103402000000,6,,
0.004190280000000,\n,,
0.005015616000000,1,,
0.005102494000000,6,,
0.005189370000000,\n,,
0.006014706000000,1,,
0.006101582000000,6,,
0.006188460000000,\n,,
0.007013796000000,1,,
0.007100672000000,6,,
0.007187550000000,\n,,
0.008012886000000,1,,
0.008099762000000,6,,
0.008186638000000,\n,,
0.009011974000000,1,,
0.009098850000000,6,,
0.009185728000000,\n,,
0.010011064000000,1,,
0.010097942000000,6,,
0.010184818000000,\n,,
0.011018842000000,1,,
0.011105718000000,6,,
0.011192596000000,\n,,
0.012017932000000,1,,
0.012104808000000,6,,
0.012191686000000,\n,,
0.013017022000000,1,,
0.013103898000000,6,,
0.013190776000000,\n,,
0.014016112000000,1,,
0.014102988000000,6,,
0.014189864000000,\n,,
0.015015200000000,1,,
0.015102076000000,6,,
0.015188954000000,\n,,
0.016014290000000,1,,
0.016101166000000,6,,
0.016188044000000,\n,,
0.017013378000000,1,,
0.017100256000000,6,,
0.017187134000000,\n,,
0.018012470000000,1,,
0.018099346000000,6,,
0.018186224000000,\n,,
0.019011560000000,1,,
0.019098436000000,6,,
0.019185314000000,\n,,
0.020019336000000,1,,
0.020106214000000,6,,
0.020193090000000,\n,,
0.021018428000000,1,,
0.021105304000000,6,,
0.021192180000000,\n,,
0.022017516000000,1,,
0.022104394000000,6,,
0.022191270000000,\n,,
0.023016606000000,1,,
0.023103484000000,6,,
0.023190360000000,\n,,
0.024015696000000,1,,
0.024102572000000,6,,
0.024189450000000,\n,,
0.025014786000000,1,,
0.025101662000000,6,,
0.025188540000000,\n,,
0.026013876000000,1,,
0.026100752000000,6,,
0.026187628000000,\n,,
0.027012964000000,1,,
0.027099842000000,6,,
0.027186718000000,\n,,
0.028012054000000,1,,
0.028098930000000,6,,
0.028185808000000,\n,,
0.029011144000000,1,,
0.029098020000000,6,,
0.029184896000000,\n,,
0.030018922000000,1,,
0.030105798000000,6,,
0.030192674000000,\n,,
0.031018010000000,1,,
0.031104888000000,6,,
0.031191766000000,\n,,
0.032017102000000,1,,
0.032103978000000,6,,
0.032190854000000,\n,,
0.033016190000000,1,,
0.033103066000000,6,,
0.033189944000000,\n,,
0.034015280000000,1,,
0.034102156000000,6,,
0.034189034000000,\n,,
0.035014370000000,1,,
0.035101246000000,6,,
0.035188124000000,\n,,
0.036022148000000,1,,
0.036109024000000,6,,
0.036195902000000,\n,,
0.037012550000000,1,,
0.037099426000000,6,,
0.037186304000000,\n,,
0.038011640000000,1,,
0.038098516000000,6,,
0.038185392000000,\n,,
0.039019416000000,1,,
0.039106294000000,6,,
0.039193172000000,\n,,
0.040018506000000,1,,
0.040105382000000,6,,
0.040192260000000,\n,,
0.041017596000000,1,,
0.041104472000000,6,,
0.041191350000000,\n,,
0.042016684000000,1,,
0.042103562000000,6,,
0.042190440000000,\n,,
0.043024464000000,1,,
0.043111340000000,6,,
0.043198218000000,\n,,
0.044014866000000,1,,
0.044101742000000,6,,
0.044188618000000,\n,,
0.045013954000000,1,,
0.045100832000000,6,,
0.045187708000000,\n,,
0.046013044000000,1,,
0.046099920000000,6,,
0.046186798000000,\n,,
0.047012134000000,1,,
0.047099012000000,6,,
0.047185888000000,\n,,
0.048019912000000,1,,
0.048106788000000,6,,
0.048193666000000,\n,,
0.049019002000000,1,,
0.049105878000000,6,,
0.049192756000000,\n,,
0.050018092000000,1,,
0.050104968000000,6,,
0.050191844000000,\n,,
0.051017180000000,1,,
0.051104058000000,6,,
0.051190936000000,\n,,
0.052016270000000,1,,
0.052103146000000,6,,
0.052190026000000,\n,,
0.053015362000000,1,,
0.053102236000000,6,,
0.053189112000000,\n,,
0.054014450000000,1,,
0.054101326000000,6,,
0.054188204000000,\n,,
0.055013540000000,1,,
0.055100416000000,6,,
0.055187294000000,\n,,
0.056021318000000,1,,
0.056108194000000,6,,
0.056195070000000,\n,,
0.057011718000000,1,,
0.057098594000000,6,,
0.057185474000000,\n,,
0.058019496000000,1,,
0.058106372000000,6,,
0.058193250000000,\n,,
0.059018586000000,1,,
0.059105462000000,6,,
0.059192340000000,\n,,
0.060017676000000,1,,
0.060104552000000,6,,
0.060191430000000,\n,,
0.061016766000000,1,,
0.061103642000000,6,,
0.061190520000000,\n,,
0.062015856000000,1,,
0.062102732000000,6,,
0.062189610000000,\n,,
0.063014946000000,1,,
0.063101822000000,6,,
0.063188700000000,\n,,
0.064022722000000,1,,
0.064109598000000,6,,
0.064196476000000,\n,,
0.065013124000000,1,,
0.065100002000000,6,,
0.065186878000000,\n,,
0.066012214000000,1,,
0.066099092000000,6,,
0.066185968000000,\n,,
0.067019992000000,1,,
0.067106868000000,6,,
0.067193746000000,\n,,
0.068019082000000,1,,
0.068105958000000,6,,
0.068192836000000,\n,,
0.069026860000000,1,,
0.069113736000000,6,,
0.069200612000000,\n,,
0.070017260000000,1,,
0.070104136000000,6,,
0.070191014000000,\n,,
0.071016350000000,1,,
0.071103226000000,6,,
0.071190104000000,\n,,
0.072015440000000,1,,
0.072102316000000,6,,
0.072189194000000,\n,,
0.073014530000000,1,,
0.073101406000000,6,,
0.073188284000000,\n,,
0.074013620000000,1,,
0.074100496000000,6,,
0.074187374000000,\n,,
0.075012710000000,1,,
0.075099586000000,6,,
0.075186462000000,\n,,
0.076020486000000,1,,
0.076107362000000,6,,
0.076194240000000,\n,,
0.077019576000000,1,,
0.077106452000000,6,,
0.077193330000000,\n,,
0.078018664000000,1,,
0.078105542000000,6,,
0.078192420000000,\n,,
0.079017756000000,1,,
0.079104632000000,6,,
0.079191510000000,\n,,
0.080016846000000,1,,
0.080103722000000,6,,
0.080190598000000,\n,,
0.081015936000000,1,,
0.081102810000000,6,,
0.081189688000000,\n,,
0.082015024000000,1,,
0.082101900000000,6,,
0.082188778000000,\n,,
0.083014114000000,1,,
0.083100990000000,6,,
0.083187868000000,\n,,
0.084013204000000,1,,
0.084100080000000,6,,
0.084186958000000,\n,,
0.085012294000000,1,,
0.085099170000000,6,,
0.085186048000000,\n,,
0.086011384000000,1,,
0.086098260000000,6,,
0.086185138000000,\n,,
0.087019160000000,1,,
0.087106036000000,6,,
0.087192914000000,\n,,
0.088018250000000,1,,
0.088105128000000,6,,
0.088192004000000,\n,,
0.089017340000000,1,,
0.089104216000000,6,,
0.089191096000000,\n,,
0.090033806000000,1,,
0.090120682000000,6,,
0.090207558000000,\n,,
0.091015520000000,1,,
0.091102396000000,6,,
0.091189274000000,\n,,
0.092014608000000,1,,
0.092101486000000,6,,
0.092188364000000,\n,,
0.093013700000000,1,,
0.093100576000000,6,,
0.093187454000000,\n,,
0.094012788000000,1,,
0.094099666000000,6,,
0.094186544000000,\n,,
0.095011878000000,1,,
0.095098754000000,6,,
0.095185632000000,\n,,
0.096019656000000,1,,
0.096106532000000,6,,
0.096193410000000,\n,,
0.097018746000000,1,,
0.097105622000000,6,,
0.097192500000000,\n,,
0.098017836000000,1,,
0.098104712000000,6,,
0.098191590000000,\n,,
0.099016926000000,1,,
0.099103802000000,6,,
0.099190678000000,\n,,
0.100016014000000,1,,
0.100102890000000,6,,
0.100189768000000,\n,,
0.101015104000000,1,,
0.101101980000000,6,,
0.101188858000000,\n,,
0.102014192000000,1,,
0.102101070000000,6,,
0.102187948000000,\n,,
0.103013282000000,1,,
0.103100158000000,6,,
0.103187038000000,\n,,
0.104012374000000,1,,
0.104099250000000,6,,
0.104186128000000,\n,,
0.105020150000000,1,,
0.105107028000000,6,,
0.105193904000000,\n,,
0.106019240000000,1,,
0.106106116000000,6,,
0.106192994000000,\n,,
0.107018330000000,1,,
0.107105206000000,6,,
0.107192084000000,\n,,
0.108017420000000,1,,
0.108104296000000,6,,
0.108191174000000,\n,,
0.109016510000000,1,,
0.109103386000000,6,,
0.109190264000000,\n,,
0.110015600000000,1,,
0.110102476000000,6,,
0.110189354000000,\n,,
0.111014690000000,1,,
0.111101566000000,6,,
0.111188444000000,\n,,
0.112013778000000,1,,
0.112100656000000,6,,
0.112187532000000,\n,,
0.113012868000000,1,,
0.113099744000000,6,,
0.113186622000000,\n,,
0.114020644000000,1,,
0.114107522000000,6,,
0.114194400000000,\n,,
0.115019736000000,1,,
0.115106612000000,6,,
0.115193490000000,\n,,
0.116018824000000,1,,
0.116105702000000,6,,
0.116192580000000,\n,,
0.117017914000000,1,,
0.117104790000000,6,,
0.117191668000000,\n,,
0.118008316000000,1,,
0.118095194000000,6,,
0.118182070000000,\n,,
0.119016094000000,1,,
0.119102970000000,6,,
0.119189848000000,\n,,
0.120015182000000,1,,
0.120102060000000,6,,
0.120188938000000,\n,,
0.121014274000000,1,,
0.121101150000000,6,,
0.121188028000000,\n,,
0.122013364000000,1,,
0.122100240000000,6,,
0.122187116000000,\n,,
0.123012452000000,1,,
0.123099328000000,6,,
0.123186206000000,\n,,
0.124020230000000,1,,
0.124107108000000,6,,
0.124193984000000,\n,,
0.125019320000000,1,,
0.125106196000000,6,,
0.125193074000000,\n,,
0.126018408000000,1,,
0.126105286000000,6,,
0.126192164000000,\n,,
0.127017498000000,1,,
0.127104376000000,6,,
0.127191254000000,\n,,
0.128016588000000,1,,
0.128103466000000,6,,
0.128190344000000,\n,,
0.129015680000000,1,,
0.129102554000000,6,,
0.129189432000000,\n,,
0.130014768000000,1,,
0.130101646000000,6,,
0.130188522000000,\n,,
0.131022546000000,1,,
0.131109422000000,6,,
0.131196302000000,\n,,
0.132012948000000,1,,
0.132099824000000,6,,
0.132186702000000,\n,,
0.133020726000000,1,,
0.133107602000000,6,,
0.133194480000000,\n,,
0.134019816000000,1,,
0.134106692000000,6,,
0.134193570000000,\n,,
0.135018904000000,1,,
0.135105782000000,6,,
0.135192658000000,\n,,
0.136017994000000,1,,
0.136104870000000,6,,
0.136191748000000,\n,,
0.137017084000000,1,,
0.137103960000000,6,,
0.137190838000000,\n,,
0.138016174000000,1,,
0.138103052000000,6,,
0.138189928000000,\n,,
0.139015262000000,1,,
0.139102140000000,6,,
0.139189018000000,\n,,
0.140014354000000,1,,
0.140101228000000,6,,
0.140188108000000,\n,,
0.141013442000000,1,,
0.141100320000000,6,,
0.141187196000000,\n,,
0.142012532000000,1,,
0.142099408000000,6,,
0.142186286000000,\n,,
0.143020310000000,1,,
0.143107188000000,6,,
0.143194064000000,\n,,
0.144019400000000,1,,
0.144106276000000,6,,
0.144193154000000,\n,,
0.145018490000000,1,,
0.145105366000000,6,,
0.145192244000000,\n,,
0.146017578000000,1,,
0.146104456000000,6,,
0.146191334000000,\n,,
0.147016670000000,1,,
0.147103546000000,6,,
0.147190422000000,\n,,
0.148015758000000,1,,
0.148102636000000,6,,
0.148189512000000,\n,,
0.149023536000000,1,,
0.149110412000000,6,,
0.149197290000000,\n,,
0.150013938000000,1,,
0.150100814000000,6,,
0.150187692000000,\n,,
0.151013028000000,1,,
0.151099904000000,6,,
0.151186782000000,\n,,
0.152012118000000,1,,
0.152098996000000,6,,
0.152185872000000,\n,,
0.153019894000000,1,,
0.153106772000000,6,,
0.153193648000000,\n,,
0.154018984000000,1,,
0.154105862000000,6,,
0.154192738000000,\n,,
0.155018074000000,1,,
0.155104950000000,6,,
0.155191828000000,\n,,
0.156017164000000,1,,
0.156104040000000,6,,
0.156190918000000,\n,,
0.157016254000000,1,,
0.157103130000000,6,,
0.157190008000000,\n,,
0.158015344000000,1,,
0.158102220000000,6,,
0.158189098000000,\n,,
0.159014434000000,1,,
0.159101310000000,6,,
0.159188186000000,\n,,
0.160013522000000,1,,
0.160100398000000,6,,
0.160187276000000,\n,,
0.161012612000000,1,,
0.161099488000000,6,,
0.161186366000000,\n,,
0.162020390000000,1,,
0.162107266000000,6,,
0.162194144000000,\n,,
0.163019480000000,1,,
0.163106356000000,6,,
0.163193234000000,\n,,
0.164018568000000,1,,
0.164105446000000,6,,
0.164192324000000,\n,,
0.165017660000000,1,,
0.165104536000000,6,,
0.165191412000000,\n,,
0.166016748000000,1,,
0.166103626000000,6,,
0.166190502000000,\n,,
0.167015838000000,1,,
0.167102716000000,6,,
0.167189592000000,\n,,
0.168014928000000,1,,
0.168101806000000,6,,
0.168188682000000,\n,,
0.169014018000000,1,,
0.169100894000000,6,,
0.169187772000000,\n,,
0.170013108000000,1,,
0.170099984000000,6,,
0.170186862000000,\n,,
0.171020884000000,1,,
0.171107762000000,6,,
0.171194638000000,\n,,
0.172037350000000,1,,
0.172124226000000,6,,
0.172211104000000,\n,,
0.173019064000000,1,,
0.173105942000000,6,,
0.173192818000000,\n,,
0.174018154000000,1,,
0.174105030000000,6,,
0.174191908000000,\n,,
0.175017244000000,1,,
0.175104122000000,6,,
0.175190998000000,\n,,
0.176016332000000,1,,
0.176103210000000,6,,
0.176190088000000,\n,,
0.177015424000000,1,,
0.177102300000000,6,,
0.177189178000000,\n,,
0.178014514000000,1,,
0.178101390000000,6,,
0.178188268000000,\n,,
0.179013602000000,1,,
0.179100478000000,6,,
0.179187358000000,\n,,
0.180021380000000,1,,
0.180108256000000,6,,
0.180195134000000,\n,,
0.181020470000000,1,,
0.181107346000000,6,,
0.181194224000000,\n,,
0.182019560000000,1,,
0.182106436000000,6,,
0.182193312000000,\n,,
0.183018650000000,1,,
0.183105526000000,6,,
0.183192404000000,\n,,
0.184017738000000,1,,
0.184104616000000,6,,
0.184191494000000,\n,,
0.185016828000000,1,,
0.185103704000000,6,,
0.185190582000000,\n,,
0.186015918000000,1,,
0.186102796000000,6,,
0.186189672000000,\n,,
0.187015006000000,1,,
0.187101884000000,6,,
0.187188762000000,\n,,
0.188014098000000,1,,
0.188100974000000,6,,
0.188187852000000,\n,,
0.189013188000000,1,,
0.189100066000000,6,,
0.189186942000000,\n,,
0.190012278000000,1,,
0.190099154000000,6,,
0.190186030000000,\n,,
0.191020054000000,1,,
0.191106932000000,6,,
0.191193808000000,\n,,
0.192019144000000,1,,
0.192106020000000,6,,
0.192192898000000,\n,,
0.193018234000000,1,,
0.193105110000000,6,,
0.193191988000000,\n,,
0.194017324000000,1,,
0.194104200000000,6,,
0.194191076000000,\n,,
0.195016414000000,1,,
0.195103290000000,6,,
0.195190168000000,\n,,
0.196015504000000,1,,
0.196102380000000,6,,
0.196189256000000,\n,,
0.197014592000000,1,,
0.197101470000000,6,,
0.197188346000000,\n,,
0.198013682000000,1,,
0.198100560000000,6,,
0.198187436000000,\n,,
0.199021458000000,1,,
0.199108336000000,6,,
0.199195214000000,\n,,
0.200020550000000,1,,
0.200107426000000,6,,
0.200194304000000,\n,,
0.201019640000000,1,,
0.201106516000000,6,,
0.201193392000000,\n,,
0.202018730000000,1,,
0.202105606000000,6,,
0.202192484000000,\n,,
0.203017820000000,1,,
0.203104694000000,6,,
0.203191572000000,\n,,
0.204016908000000,1,,
0.204103786000000,6,,
0.204190662000000,\n,,
0.205015998000000,1,,
0.205102874000000,6,,
0.205189752000000,\n,,
0.206015088000000,1,,
0.206101966000000,6,,
0.206188842000000,\n,,
0.207014178000000,1,,
0.207101054000000,6,,
0.207187932000000,\n,,
0.208021956000000,1,,
0.208108832000000,6,,
0.208195708000000,\n,,
0.209012356000000,1,,
0.209099234000000,6,,
0.209186112000000,\n,,
0.210020132000000,1,,
0.210107010000000,6,,
0.210193888000000,\n,,
0.211019224000000,1,,
0.211106100000000,6,,
0.211192978000000,\n,,
0.212018314000000,1,,
0.212105190000000,6,,
0.212192068000000,\n,,
0.213017404000000,1,,
0.213104280000000,6,,
0.213191158000000,\n,,
0.214016494000000,1,,
0.214103370000000,6,,
0.214190246000000,\n,,
0.215015584000000,1,,
0.215102460000000,6,,
0.215189336000000,\n,,
0.216014672000000,1,,
0.216101550000000,6,,
0.216188426000000,\n,,
0.217013762000000,1,,
0.217100638000000,6,,
0.217187516000000,\n,,
0.218021540000000,1,,
0.218108416000000,6,,
0.218195294000000,\n,,
0.219020630000000,1,,
0.219107506000000,6,,
0.219194384000000,\n,,
0.220019720000000,1,,
0.220106596000000,6,,
0.220193474000000,\n,,
0.221018808000000,1,,
0.221105686000000,6,,
0.221192562000000,\n,,
0.222017898000000,1,,
0.222104776000000,6,,
0.222191654000000,\n,,
0.223016988000000,1,,
0.223103866000000,6,,
0.223190742000000,\n,,
0.224016078000000,1,,
0.224102956000000,6,,
0.224189832000000,\n,,
0.225015166000000,1,,
0.225102044000000,6,,
0.225188922000000,\n,,
0.226014258000000,1,,
0.226101134000000,6,,
0.226188012000000,\n,,
0.227013346000000,1,,
0.227100224000000,6,,
0.227187102000000,\n,,
0.228021124000000,1,,
0.228108000000000,6,,
0.228194878000000,\n,,
0.229020214000000,1,,
0.229107092000000,6,,
0.229193970000000,\n,,
0.230019304000000,1,,
0.230106180000000,6,,
0.230193058000000,\n,,
0.231018394000000,1,,
0.231105270000000,6,,
0.231192148000000,\n,,
0.232017484000000,1,,
0.232104360000000,6,,
0.232191236000000,\n,,
0.233016574000000,1,,
0.233103448000000,6,,
0.233190328000000,\n,,
0.234015662000000,1,,
0.234102540000000,6,,
0.234189416000000,\n,,
0.235014752000000,1,,
0.235101630000000,6,,
0.235188506000000,\n,,
0.236013842000000,1,,
0.236100718000000,6,,
0.236187596000000,\n,,
0.237021620000000,1,,
0.237108496000000,6,,
0.237195374000000,\n,,
0.238020710000000,1,,
0.238107586000000,6,,
0.238194462000000,\n,,
0.239019800000000,1,,
0.239106676000000,6,,
0.239193552000000,\n,,
0.240018890000000,1,,
0.240105764000000,6,,
0.240192642000000,\n,,
0.241017978000000,1,,
0.241104854000000,6,,
0.241191732000000,\n,,
0.242017068000000,1,,
0.242103944000000,6,,
0.242190822000000,\n,,
0.243024846000000,1,,
0.243111722000000,6,,
0.243198600000000,\n,,
0.244015248000000,1,,
0.244102126000000,6,,
0.244189002000000,\n,,
0.245014338000000,1,,
0.245101214000000,6,,
0.245188090000000,\n,,
0.246013426000000,1,,
0.246100304000000,6,,
0.246187180000000,\n,,
0.247021204000000,1,,
0.247108080000000,6,,
0.247194958000000,\n,,
0.248020296000000,1,,
0.248107170000000,6,,
0.248194048000000,\n,,
0.249019384000000,1,,
0.249106260000000,6,,
0.249193138000000,\n,,
0.250018472000000,1,,
0.250105348000000,6,,
0.250192228000000,\n,,
0.251017562000000,1,,
0.251104440000000,6,,
0.251191316000000,\n,,
0.252016654000000,1,,
0.252103530000000,6,,
0.252190408000000,\n,,
0.253015742000000,1,,
0.253102618000000,6,,
0.253189496000000,\n,,
0.254023520000000,1,,
0.254110396000000,6,,
0.254197274000000,\n,,
0.255022610000000,1,,
0.255109486000000,6,,
0.255196364000000,\n,,
0.256021698000000,1,,
0.256108578000000,6,,
0.256195452000000,\n,,
0.257020790000000,1,,
0.257107666000000,6,,
0.257194542000000,\n,,
0.258019878000000,1,,
0.258106754000000,6,,
0.258193632000000,\n,,
0.259018968000000,1,,
0.259105846000000,6,,
0.259192722000000,\n,,
0.260018058000000,1,,
0.260104934000000,6,,
0.260191812000000,\n,,
0.261017148000000,1,,
0.261104024000000,6,,
0.261190902000000,\n,,
0.262016238000000,1,,
0.262103114000000,6,,
0.262189992000000,\n,,
0.263015328000000,1,,
0.263102204000000,6,,
0.263189080000000,\n,,
0.264014416000000,1,,
0.264101294000000,6,,
0.264188172000000,\n,,
0.265013508000000,1,,
0.265100382000000,6,,
0.265187260000000,\n,,
0.266012596000000,1,,
0.266099472000000,6,,
0.266186350000000,\n,,
0.267020374000000,1,,
0.267107250000000,6,,
0.267194128000000,\n,,
0.268019464000000,1,,
0.268106340000000,6,,
0.268193218000000,\n,,
0.269018554000000,1,,
0.269105430000000,6,,
0.269192308000000,\n,,
0.270017642000000,1,,
0.270104518000000,6,,
0.270191396000000,\n,,
0.271016732000000,1,,
0.271103610000000,6,,
0.271190486000000,\n,,
0.272015822000000,1,,
0.272102698000000,6,,
0.272189576000000,\n,,
0.273014912000000,1,,
0.273101788000000,6,,
0.273188666000000,\n,,
0.274014000000000,1,,
0.274100878000000,6,,
0.274187756000000,\n,,
0.275021780000000,1,,
0.275108656000000,6,,
0.275195532000000,\n,,
0.276020868000000,1,,
0.276107746000000,6,,
0.276194622000000,\n,,
0.277019958000000,1,,
0.277106834000000,6,,
0.277193712000000,\n,,
0.278019048000000,1,,
0.278105924000000,6,,
0.278192802000000,\n,,
0.279018138000000,1,,
0.279105016000000,6,,
0.279191892000000,\n,,
0.280017228000000,1,,
0.280104104000000,6,,
0.280190982000000,\n,,
0.281016318000000,1,,
0.281103194000000,6,,
0.281190070000000,\n,,
0.282015406000000,1,,
0.282102284000000,6,,
0.282189160000000,\n,,
0.283014498000000,1,,
0.283101374000000,6,,
0.283188250000000,\n,,
0.284013586000000,1,,
0.284100464000000,6,,
0.284187340000000,\n,,
0.285021364000000,1,,
0.285108240000000,6,,
0.285195118000000,\n,,
0.286020454000000,1,,
0.286107330000000,6,,
0.286194208000000,\n,,
0.287019544000000,1,,
0.287106420000000,6,,
0.287193298000000,\n,,
0.288018634000000,1,,
0.288105510000000,6,,
0.288192386000000,\n,,
0.289017722000000,1,,
0.289104598000000,6,,
0.289191476000000,\n,,
0.290016812000000,1,,
0.290103690000000,6,,
0.290190566000000,\n,,
0.291015902000000,1,,
0.291102778000000,6,,
0.291189656000000,\n,,
0.292014992000000,1,,
0.292101868000000,6,,
0.292188746000000,\n,,
0.293014082000000,1,,
0.293100958000000,6,,
0.293187836000000,\n,,
0.294021860000000,1,,
0.294108736000000,6,,
0.294195612000000,\n,,
0.295020948000000,1,,
0.295107824000000,6,,
0.295194704000000,\n,,
0.296020038000000,1,,
